Freq.	V(n002)
1.00000000000000e+03	(1.39793461947625e+01dB,1.79965492248073e+02°)
1.14869835499704e+03	(1.39793456919474e+01dB,1.79960361003655e+02°)
1.31950791077289e+03	(1.39793450284790e+01dB,1.79954466752423e+02°)
1.51571656651040e+03	(1.39793441530273e+01dB,1.79947696036923e+02°)
1.74110112659225e+03	(1.39793429978622e+01dB,1.79939918528978e+02°)
2.00000000000000e+03	(1.39793414736131e+01dB,1.79930984521141e+02°)
2.29739670999407e+03	(1.39793394623552e+01dB,1.79920722045197e+02°)
2.63901582154579e+03	(1.39793368084860e+01dB,1.79908933562271e+02°)
3.03143313302080e+03	(1.39793333066870e+01dB,1.79895392160886e+02°)
3.48220225318450e+03	(1.39793286860399e+01dB,1.79879837189884e+02°)
4.00000000000000e+03	(1.39793225890669e+01dB,1.79861969242248e+02°)
4.59479341998814e+03	(1.39793145440760e+01dB,1.79841444393485e+02°)
5.27803164309158e+03	(1.39793039286696e+01dB,1.79817867583940e+02°)
6.06286626604160e+03	(1.39792899215967e+01dB,1.79790785018088e+02°)
6.96440450636900e+03	(1.39792714392222e+01dB,1.79759675435182e+02°)
8.00000000000001e+03	(1.39792470517033e+01dB,1.79723940084197e+02°)
9.18958683997629e+03	(1.39792148723887e+01dB,1.79682891211651e+02°)
1.05560632861832e+04	(1.39791724118935e+01dB,1.79635738842981e+02°)
1.21257325320832e+04	(1.39791163855693e+01dB,1.79581575606535e+02°)
1.39288090127380e+04	(1.39790424594974e+01dB,1.79519359313340e+02°)
1.60000000000000e+04	(1.39789449153865e+01dB,1.79447892965337e+02°)
1.83791736799526e+04	(1.39788162085130e+01dB,1.79365801819410e+02°)
2.11121265723663e+04	(1.39786463846121e+01dB,1.79271507084102e+02°)
2.42514650641664e+04	(1.39784223107934e+01dB,1.79163195770595e+02°)
2.78576180254760e+04	(1.39781266613077e+01dB,1.79038786159811e+02°)
3.20000000000001e+04	(1.39777365802698e+01dB,1.78895888284865e+02°)
3.67583473599052e+04	(1.39772219188658e+01dB,1.78731758764972e+02°)
4.22242531447327e+04	(1.39765429123917e+01dB,1.78543249267909e+02°)
4.85029301283329e+04	(1.39756471204050e+01dB,1.78326747830575e+02°)
5.57152360509521e+04	(1.39744653984749e+01dB,1.78078112243121e+02°)
6.40000000000002e+04	(1.39729065989443e+01dB,1.77792594720378e+02°)
7.35166947198104e+04	(1.39708506064577e+01dB,1.77464757174023e+02°)
8.44485062894655e+04	(1.39681391967391e+01dB,1.77088376604787e+02°)
9.70058602566657e+04	(1.39645640587077e+01dB,1.76656340523111e+02°)
1.11430472101904e+05	(1.39598511351022e+01dB,1.76160532979102e+02°)
1.28000000000000e+05	(1.39536402114569e+01dB,1.75591712884918e+02°)
1.47033389439621e+05	(1.39454584177466e+01dB,1.74939388055581e+02°)
1.68897012578931e+05	(1.39346860104273e+01dB,1.74191691073459e+02°)
1.94011720513332e+05	(1.39205125013168e+01dB,1.73335267097625e+02°)
2.22860944203808e+05	(1.39018809510737e+01dB,1.72355189606259e+02°)
2.56000000000001e+05	(1.38774181585608e+01dB,1.71234928381475e+02°)
2.94066778879242e+05	(1.38453487458420e+01dB,1.69956405411833e+02°)
3.37794025157862e+05	(1.38033920771566e+01dB,1.68500189118647e+02°)
3.88023441026663e+05	(1.37486430352404e+01dB,1.66845894921787e+02°)
4.45721888407617e+05	(1.36774415575342e+01dB,1.64972878389171e+02°)
5.12000000000002e+05	(1.35852422470797e+01dB,1.62861320517645e+02°)
5.88133557758484e+05	(1.34665048662637e+01dB,1.60493802362382e+02°)
6.75588050315724e+05	(1.33146388191101e+01dB,1.57857431057290e+02°)
7.76046882053327e+05	(1.31220476516346e+01dB,1.54946489091378e+02°)
8.91443776815234e+05	(1.28803277887847e+01dB,1.51765414862131e+02°)
1.02400000000000e+06	(1.25806701407221e+01dB,1.48331689003153e+02°)
1.17626711551697e+06	(1.22144833764631e+01dB,1.44677951693064e+02°)
1.35117610063145e+06	(1.17741985390612e+01dB,1.40852531836819e+02°)
1.55209376410665e+06	(1.12541368039586e+01dB,1.36917688254718e+02°)
1.78288755363047e+06	(1.06512571640546e+01dB,1.32945342957671e+02°)
2.04800000000001e+06	(9.96559058650577e+00dB,1.29010835344830e+02°)
2.35253423103394e+06	(9.20023547472277e+00dB,1.25185930631139e+02°)
2.70235220126290e+06	(8.36091578909883e+00dB,1.21532602508490e+02°)
3.10418752821331e+06	(7.45522904455811e+00dB,1.18098812452893e+02°)
3.56577510726094e+06	(6.49177817942445e+00dB,1.14916798900057e+02°)
4.09600000000002e+06	(5.47936963108166e+00dB,1.12003643610966e+02°)
4.70506846206788e+06	(4.42639427444689e+00dB,1.09363409589588e+02°)
5.40470440252580e+06	(3.34043013627733e+00dB,1.06990032204862e+02°)
6.20837505642662e+06	(2.22804721605553e+00dB,1.04870293060364e+02°)
7.13155021452188e+06	(1.09476546886410e+00dB,1.02986456072818e+02°)
8.19200000000004e+06	(-5.48882049213214e-02dB,1.01318377672803e+02°)
9.41013692413576e+06	(-1.21726975983777e+00dB,9.98450653433603e+01°)
1.08094088050516e+07	(-2.38948744110197e+00dB,9.85457475766813e+01°)
1.24167501128532e+07	(-3.56927144641502e+00dB,9.74005526341721e+01°)
1.42631004290438e+07	(-4.75485497280723e+00dB,9.63908953533818e+01°)
1.63840000000001e+07	(-5.94487145145608e+00dB,9.54996577380879e+01°)
1.88202738482715e+07	(-7.13826893624861e+00dB,9.47112307851459e+01°)
2.16188176101032e+07	(-8.33424055458909e+00dB,9.40114674043738e+01°)
2.48335002257065e+07	(-9.53216900686535e+00dB,9.33875815876944e+01°)
2.85262008580876e+07	(-1.07315828411618e+01dB,9.28280176427927e+01°)
3.27680000000002e+07	(-1.19321223197945e+01dB,9.23223049946057e+01°)
3.76405476965431e+07	(-1.31335129432147e+01dB,9.18609081817806e+01°)
4.32376352202065e+07	(-1.43355449963459e+01dB,9.14350776318822e+01°)
4.96670004514130e+07	(-1.55380577758185e+01dB,9.10367040758836e+01°)
5.70524017161751e+07	(-1.67409274177131e+01dB,9.06581776603313e+01°)
6.55360000000004e+07	(-1.79440574651529e+01dB,9.02922516401434e+01°)
7.52810953930862e+07	(-1.91473714929420e+01dB,8.99319097766343e+01°)
8.64752704404130e+07	(-2.03508072459086e+01dB,8.95702360787347e+01°)
9.93340009028261e+07	(-2.15543118534656e+01dB,8.92002852122416e+01°)
1.00000000000000e+08	(-2.16123245372659e+01dB,8.91821220321292e+01°)
