time	V(n002)	V(n003)
0.000000000000000e+00	0.000000e+00	0.000000e+00
2.603774681367812e-07	-1.683310e-05	1.636000e-06
5.207549362735625e-07	-5.898764e-05	3.272000e-06
7.811324044103437e-07	-1.264636e-04	4.907999e-06
1.041509872547125e-06	-2.192610e-04	6.543999e-06
1.301887340683906e-06	-3.373799e-04	8.179998e-06
1.562264808820687e-06	-4.808202e-04	9.815998e-06
1.822642276957468e-06	-6.495819e-04	1.145200e-05
2.419844958563406e-06	-1.108194e-03	1.520433e-05
3.260076948161762e-06	-1.889356e-03	2.048365e-05
4.447415051611524e-06	-3.097044e-03	2.794390e-05
6.388943237323751e-06	-4.814580e-03	4.014281e-05
8.844725021456668e-06	-5.860607e-03	5.557276e-05
1.157344214817273e-05	-5.243823e-03	7.271744e-05
1.444113002748576e-05	-3.365003e-03	9.073505e-05
1.772978883469900e-05	-1.643693e-03	1.113972e-04
2.061736740171977e-05	-1.893418e-03	1.295391e-04
2.380990956900635e-05	-3.861158e-03	1.495965e-04
2.730512568571079e-05	-5.670494e-03	1.715548e-04
3.140397760769469e-05	-5.364455e-03	1.973042e-04
3.597000064708539e-05	-3.412025e-03	2.259869e-04
4.066062953054150e-05	-2.971177e-03	2.554505e-04
4.519347825187003e-05	-4.715040e-03	2.839208e-04
5.056880171816445e-05	-6.024585e-03	3.176797e-04
5.613498347774593e-05	-4.882334e-03	3.526334e-04
6.264657279326942e-05	-4.103071e-03	3.935184e-04
6.949015035618937e-05	-5.654715e-03	4.364808e-04
7.690216452121793e-05	-6.221251e-03	4.830025e-04
8.478009369839264e-05	-5.189631e-03	5.324372e-04
9.336890716127545e-05	-5.773303e-03	5.863177e-04
1.047727898470665e-04	-6.809756e-03	6.578315e-04
1.159028701864327e-04	-6.449019e-03	7.275957e-04
1.291201044818372e-04	-6.994010e-03	8.103959e-04
1.506534766233456e-04	-7.863552e-03	9.451708e-04
1.715933382987994e-04	-8.363361e-03	1.076065e-03
1.956042328217683e-04	-9.370706e-03	1.225926e-03
2.262123360987066e-04	-1.012709e-02	1.416553e-03
2.664885390520600e-04	-1.142291e-02	1.666584e-03
4.384240554418323e-04	-1.661162e-02	2.719992e-03
6.337365554418323e-04	-2.226555e-02	3.877491e-03
8.290490554418322e-04	-2.758440e-02	4.976669e-03
1.024361555441832e-03	-3.248822e-02	6.000994e-03
1.219674055441832e-03	-3.690330e-02	6.935058e-03
1.414986555441833e-03	-4.076330e-02	7.764812e-03
1.610299055441833e-03	-4.401023e-02	8.477776e-03
1.805611555441833e-03	-4.659530e-02	9.063226e-03
1.903267805441833e-03	-4.763579e-02	9.305304e-03
2.000924055441833e-03	-4.847969e-02	9.512357e-03
2.098580305441833e-03	-4.916070e-02	9.683609e-03
2.196236555441833e-03	-4.963509e-02	9.818414e-03
2.293892805441833e-03	-4.994598e-02	9.916265e-03
2.391549055441833e-03	-5.004417e-02	9.976792e-03
2.489205305441833e-03	-4.997978e-02	9.999770e-03
2.586861555441833e-03	-4.970078e-02	9.985111e-03
2.684517805441833e-03	-4.926157e-02	9.932869e-03
2.782174055441834e-03	-4.861011e-02	9.843243e-03
2.879830305441834e-03	-4.780218e-02	9.716569e-03
2.977486555441834e-03	-4.678855e-02	9.553324e-03
3.075142805441834e-03	-4.562354e-02	9.354123e-03
3.172799055441834e-03	-4.426347e-02	9.119715e-03
3.368111555441834e-03	-4.107284e-02	8.548936e-03
3.563424055441834e-03	-3.726459e-02	7.849573e-03
3.758736555441834e-03	-3.289595e-02	7.032146e-03
3.954049055441835e-03	-2.803258e-02	6.108948e-03
4.149361555441834e-03	-2.274757e-02	5.093866e-03
4.344674055441833e-03	-1.712035e-02	4.002168e-03
4.539986555441832e-03	-1.123551e-02	2.850274e-03
4.637642805441832e-03	-8.214867e-03	2.257138e-03
4.735299055441832e-03	-5.181517e-03	1.655508e-03
4.832955305441831e-03	-2.108499e-03	1.047647e-03
4.930611555441831e-03	9.506134e-04	4.358423e-04
5.028267805441831e-03	4.029368e-03	-1.776025e-04
5.223580305441830e-03	1.010639e-02	-1.400181e-03
5.418892805441829e-03	1.603116e-02	-2.601699e-03
5.614205305441829e-03	2.171457e-02	-3.764085e-03
5.809517805441828e-03	2.707114e-02	-4.869855e-03
6.004830305441827e-03	3.202035e-02	-5.902379e-03
6.200142805441827e-03	3.648779e-02	-6.846125e-03
6.395455305441826e-03	4.040631e-02	-7.686900e-03
6.590767805441825e-03	4.371703e-02	-8.412056e-03
6.786080305441825e-03	4.637020e-02	-9.010687e-03
6.981392805441824e-03	4.832598e-02	-9.473788e-03
7.079049055441823e-03	4.903901e-02	-9.652256e-03
7.274361555441823e-03	4.989927e-02	-9.899670e-03
7.372017805441822e-03	5.003881e-02	-9.967686e-03
7.469674055441822e-03	5.000883e-02	-9.998185e-03
7.567330305441822e-03	4.977018e-02	-9.991053e-03
7.664986555441821e-03	4.936601e-02	-9.946316e-03
7.762642805441821e-03	4.875317e-02	-9.864145e-03
7.860299055441821e-03	4.798045e-02	-9.744847e-03
7.957955305441820e-03	4.700310e-02	-9.588872e-03
8.055611555441820e-03	4.587300e-02	-9.396805e-03
8.153267805441820e-03	4.454629e-02	-9.169373e-03
8.250924055441819e-03	4.307534e-02	-8.907428e-03
8.348580305441819e-03	4.141968e-02	-8.611958e-03
8.543892805441818e-03	3.767029e-02	-7.925010e-03
8.739205305441818e-03	3.335447e-02	-7.118864e-03
8.934517805441817e-03	2.853709e-02	-6.205644e-03
9.129830305441816e-03	2.329057e-02	-5.199084e-03
9.325142805441815e-03	1.769377e-02	-4.114326e-03
9.520455305441815e-03	1.183082e-02	-2.967684e-03
9.715767805441814e-03	5.789845e-03	-1.776406e-03
9.911080305441813e-03	-3.383306e-04	-5.584083e-04
1.000873655544181e-02	-3.415154e-03	5.489312e-05
1.020404905544181e-02	-9.502819e-03	1.278569e-03
1.039936155544181e-02	-1.544735e-02	2.483013e-03
1.059467405544181e-02	-2.115932e-02	3.650111e-03
1.078998655544181e-02	-2.655282e-02	4.762308e-03
1.098529905544181e-02	-3.154673e-02	5.802875e-03
1.118061155544181e-02	-3.606595e-02	6.756161e-03
1.137592405544181e-02	-4.004255e-02	7.607829e-03
1.157123655544181e-02	-4.341673e-02	8.345068e-03
1.176654905544181e-02	-4.613782e-02	8.956789e-03
1.196186155544181e-02	-4.816491e-02	9.433792e-03
1.215717405544181e-02	-4.946758e-02	9.768901e-03
1.235248655544180e-02	-5.002627e-02	9.957078e-03
1.245014280544180e-02	-5.002990e-02	9.995094e-03
1.254779905544180e-02	-4.983263e-02	9.995490e-03
1.264545530544180e-02	-4.946237e-02	9.958266e-03
1.274311155544180e-02	-4.888960e-02	9.883561e-03
1.284076780544180e-02	-4.815073e-02	9.771657e-03
1.293842405544180e-02	-4.721141e-02	9.622974e-03
1.303608030544180e-02	-4.611466e-02	9.438073e-03
1.313373655544180e-02	-4.482331e-02	9.217650e-03
1.332904905544180e-02	-4.176124e-02	8.673682e-03
1.352436155544180e-02	-3.807124e-02	7.999254e-03
1.371967405544180e-02	-3.380882e-02	7.204511e-03
1.391498655544180e-02	-2.903804e-02	6.301404e-03
1.411029905544180e-02	-2.383065e-02	5.303519e-03
1.430561155544180e-02	-1.826493e-02	4.225864e-03
1.450092405544180e-02	-1.242454e-02	3.084647e-03
1.469623655544180e-02	-6.397291e-03	1.897036e-03
1.489154905544180e-02	-2.737833e-04	6.808902e-04
1.508686155544180e-02	5.853922e-03	-5.454964e-04
1.528217405544179e-02	1.189370e-02	-1.763678e-03
1.537983030544179e-02	1.486055e-02	-2.363954e-03
1.557514280544179e-02	2.060011e-02	-3.535588e-03
1.577045530544180e-02	2.602964e-02	-4.654043e-03
1.596576780544180e-02	3.106746e-02	-5.702497e-03
1.616108030544180e-02	3.563780e-02	-6.665180e-03
1.635639280544180e-02	3.967193e-02	-7.527613e-03
1.655170530544181e-02	4.310919e-02	-8.276824e-03
1.674701780544181e-02	4.589791e-02	-8.901543e-03
1.694233030544181e-02	4.799619e-02	-9.392375e-03
1.713764280544182e-02	4.937250e-02	-9.741937e-03
1.733295530544182e-02	5.000619e-02	-9.944971e-03
1.752826780544182e-02	4.988776e-02	-9.998423e-03
1.772358030544182e-02	4.901905e-02	-9.901489e-03
1.791889280544183e-02	4.741316e-02	-9.655628e-03
1.811420530544183e-02	4.509427e-02	-9.264538e-03
1.830951780544183e-02	4.209729e-02	-8.734100e-03
1.850483030544183e-02	3.846730e-02	-8.072293e-03
1.870014280544184e-02	3.425892e-02	-7.289072e-03
1.889545530544184e-02	2.953544e-02	-6.396216e-03
1.909076780544184e-02	2.436789e-02	-5.407155e-03
1.928608030544185e-02	1.883397e-02	-4.336765e-03
1.948139280544185e-02	1.301688e-02	-3.201147e-03
1.967670530544185e-02	7.004080e-03	-2.017380e-03
1.987201780544185e-02	8.859761e-04	-8.032695e-04
2.006733030544186e-02	-5.245457e-03	4.229226e-04
2.026264280544186e-02	-1.129804e-02	1.642754e-03
2.045795530544186e-02	-1.718077e-02	2.837876e-03
2.065326780544187e-02	-2.280520e-02	3.990314e-03
2.075092405544187e-02	-2.550189e-02	4.545077e-03
2.094623655544187e-02	-3.058277e-02	5.601261e-03
2.114154905544187e-02	-3.520348e-02	6.573196e-03
2.133686155544188e-02	-3.929453e-02	7.446263e-03
2.153217405544188e-02	-4.279437e-02	8.207333e-03
2.172748655544188e-02	-4.565039e-02	8.844956e-03
2.192279905544188e-02	-4.781964e-02	9.349544e-03
2.211811155544189e-02	-4.926952e-02	9.713504e-03
2.231342405544189e-02	-4.997827e-02	9.931365e-03
2.250873655544189e-02	-4.993526e-02	9.999849e-03
2.270404905544189e-02	-4.914117e-02	9.917926e-03
2.289936155544190e-02	-4.760800e-02	9.686829e-03
2.309467405544190e-02	-4.535883e-02	9.310031e-03
2.328998655544190e-02	-4.242753e-02	8.793203e-03
2.348529905544191e-02	-3.885822e-02	8.144117e-03
2.368061155544191e-02	-3.470460e-02	7.372536e-03
2.387592405544191e-02	-3.002915e-02	6.490064e-03
2.407123655544191e-02	-2.490221e-02	5.509977e-03
2.426654905544192e-02	-1.940088e-02	4.447014e-03
2.446186155544192e-02	-1.360788e-02	3.317164e-03
2.465717405544192e-02	-7.610336e-03	2.137420e-03
2.485248655544193e-02	-1.498417e-03	9.255278e-04
2.514545530544193e-02	7.682162e-03	-9.126509e-04
2.534076780544193e-02	1.367959e-02	-2.124785e-03
2.553608030544193e-02	1.947124e-02	-3.304961e-03
2.573139280544194e-02	2.496994e-02	-4.435427e-03
2.592670530544194e-02	3.009298e-02	-5.499180e-03
2.612201780544194e-02	3.476326e-02	-6.480221e-03
2.631733030544195e-02	3.891053e-02	-7.363793e-03
2.651264280544195e-02	4.247239e-02	-8.136606e-03
2.670795530544195e-02	4.539526e-02	-8.787038e-03
2.690326780544195e-02	4.763520e-02	-9.305304e-03
2.709858030544196e-02	4.915851e-02	-9.683609e-03
2.729389280544196e-02	4.994232e-02	-9.916265e-03
2.748920530544196e-02	4.997486e-02	-9.999770e-03
2.768451780544197e-02	4.925567e-02	-9.932869e-03
2.787983030544197e-02	4.779560e-02	-9.716569e-03
2.807514280544197e-02	4.561666e-02	-9.354123e-03
2.827045530544197e-02	4.275164e-02	-8.850982e-03
2.846576780544198e-02	3.924368e-02	-8.214714e-03
2.866108030544198e-02	3.514556e-02	-7.454889e-03
2.885639280544198e-02	3.051895e-02	-6.582935e-03
2.905170530544198e-02	2.543345e-02	-5.611969e-03
2.924701780544199e-02	1.996556e-02	-4.556593e-03
2.944233030544199e-02	1.419752e-02	-3.432681e-03
2.963764280544199e-02	8.216070e-03	-2.257138e-03
2.983295530544200e-02	2.111172e-03	-1.047647e-03
3.002826780544200e-02	-4.025377e-03	1.776025e-04
3.022358030544200e-02	-1.010131e-02	1.400181e-03
3.041889280544200e-02	-1.602526e-02	2.601699e-03
3.061420530544201e-02	-2.170817e-02	3.764085e-03
3.080951780544201e-02	-2.706459e-02	4.869855e-03
3.100483030544201e-02	-3.201399e-02	5.902379e-03
3.120014280544202e-02	-3.648197e-02	6.846125e-03
3.139545530544201e-02	-4.040132e-02	7.686900e-03
3.149311155544202e-02	-4.214344e-02	8.064654e-03
3.168842405544202e-02	-4.513267e-02	8.727795e-03
3.188373655544202e-02	-4.744293e-02	9.259663e-03
3.207904905544202e-02	-4.903946e-02	9.652256e-03
3.227436155544203e-02	-4.989825e-02	9.899670e-03
3.237201780544203e-02	-5.004054e-02	9.967686e-03
3.246967405544203e-02	-5.000641e-02	9.998185e-03
3.266498655544203e-02	-4.936232e-02	9.946316e-03
3.286029905544204e-02	-4.797571e-02	9.744847e-03
3.305561155544204e-02	-4.586746e-02	9.396805e-03
3.325092405544204e-02	-4.306930e-02	8.907428e-03
3.344623655544204e-02	-3.962336e-02	8.284074e-03
3.364154905544205e-02	-3.558150e-02	7.536120e-03
3.383686155544205e-02	-3.100454e-02	6.674815e-03
3.403217405544205e-02	-2.596135e-02	5.713115e-03
3.422748655544205e-02	-2.052780e-02	4.665485e-03
3.442279905544206e-02	-1.478562e-02	3.547681e-03
3.461811155544206e-02	-8.821183e-03	2.376517e-03
3.481342405544206e-02	-2.724203e-03	1.169608e-03
3.500873655544207e-02	3.413628e-03	-5.489312e-05
3.520404905544207e-02	9.500009e-03	-1.278569e-03
3.539936155544207e-02	1.544342e-02	-2.483013e-03
3.559467405544207e-02	2.115448e-02	-3.650111e-03
3.578998655544208e-02	2.654734e-02	-4.762308e-03
3.598529905544208e-02	3.154090e-02	-5.802875e-03
3.618061155544208e-02	3.606009e-02	-6.756161e-03
3.637592405544209e-02	4.003695e-02	-7.607829e-03
3.657123655544209e-02	4.341172e-02	-8.345068e-03
3.676654905544209e-02	4.613363e-02	-8.956789e-03
3.686420530544209e-02	4.724299e-02	-9.212627e-03
3.705951780544210e-02	4.891245e-02	-9.619449e-03
3.725483030544210e-02	4.984609e-02	-9.881586e-03
3.735248655544210e-02	5.002563e-02	-9.957078e-03
3.745014280544210e-02	5.002987e-02	-9.995094e-03
3.754779905544210e-02	4.983331e-02	-9.995490e-03
3.774311155544210e-02	4.889157e-02	-9.883561e-03
3.793842405544211e-02	4.721454e-02	-9.622974e-03
3.813373655544211e-02	4.482742e-02	-9.217650e-03
3.832904905544211e-02	4.176611e-02	-8.673682e-03
3.852436155544212e-02	3.807661e-02	-7.999254e-03
3.871967405544212e-02	3.381439e-02	-7.204511e-03
3.891498655544212e-02	2.904353e-02	-6.301404e-03
3.911029905544212e-02	2.383576e-02	-5.303519e-03
3.930561155544213e-02	1.826939e-02	-4.225864e-03
3.950092405544213e-02	1.242812e-02	-3.084647e-03
3.969623655544213e-02	6.399808e-03	-1.897036e-03
3.989154905544214e-02	2.751130e-04	-6.808902e-04
4.008686155544214e-02	-5.853841e-03	5.454964e-04
4.028217405544214e-02	-1.189486e-02	1.763678e-03
4.047748655544214e-02	-1.775707e-02	2.955332e-03
4.067279905544215e-02	-2.335227e-02	4.102536e-03
4.086811155544215e-02	-2.859629e-02	5.188033e-03
4.106342405544215e-02	-3.341023e-02	6.195498e-03
4.125873655544215e-02	-3.772165e-02	7.109777e-03
4.145404905544216e-02	-4.146567e-02	7.917117e-03
4.164936155544216e-02	-4.458597e-02	8.605378e-03
4.184467405544216e-02	-4.703557e-02	9.164205e-03
4.203998655544217e-02	-4.877763e-02	9.585193e-03
4.223529905544217e-02	-4.978592e-02	9.862012e-03
4.243061155544217e-02	-5.004527e-02	9.990497e-03
4.252826780544217e-02	-4.988640e-02	9.998423e-03
4.272358030544218e-02	-4.901887e-02	9.901489e-03
4.291889280544218e-02	-4.741416e-02	9.655628e-03
4.311420530544218e-02	-4.509639e-02	9.264538e-03
4.330951780544218e-02	-4.210041e-02	8.734100e-03
4.350483030544219e-02	-3.847125e-02	8.072293e-03
4.370014280544219e-02	-3.426348e-02	7.289072e-03
4.389545530544219e-02	-2.954036e-02	6.396216e-03
4.409076780544220e-02	-2.437290e-02	5.407155e-03
4.428608030544220e-02	-1.883881e-02	4.336765e-03
4.448139280544220e-02	-1.302130e-02	3.201147e-03
4.467670530544220e-02	-7.007849e-03	2.017380e-03
4.487201780544221e-02	-8.888958e-04	8.032695e-04
4.506733030544221e-02	5.243535e-03	-4.229226e-04
4.526264280544221e-02	1.129721e-02	-1.642754e-03
4.545795530544221e-02	1.718107e-02	-2.837876e-03
4.565326780544222e-02	2.280661e-02	-3.990314e-03
4.584858030544222e-02	2.808919e-02	-5.082734e-03
4.604389280544222e-02	3.294936e-02	-6.098705e-03
4.623920530544223e-02	3.731398e-02	-7.022946e-03
4.643451780544223e-02	4.111738e-02	-7.841555e-03
4.662983030544223e-02	4.430234e-02	-8.542220e-03
4.682514280544223e-02	4.682091e-02	-9.114402e-03
4.702045530544224e-02	4.863520e-02	-9.549495e-03
4.721576780544224e-02	4.971791e-02	-9.840954e-03
4.741108030544224e-02	5.005272e-02	-9.984396e-03
4.750873655544224e-02	4.993241e-02	-9.999849e-03
4.770404905544225e-02	4.913926e-02	-9.917926e-03
4.789936155544225e-02	4.760712e-02	-9.686829e-03
4.809467405544225e-02	4.535902e-02	-9.310031e-03
4.828998655544225e-02	4.242877e-02	-8.793203e-03
4.848529905544226e-02	3.886043e-02	-8.144117e-03
4.868061155544226e-02	3.470766e-02	-7.372536e-03
4.887592405544226e-02	3.003290e-02	-6.490064e-03
4.907123655544227e-02	2.490644e-02	-5.509977e-03
4.926654905544227e-02	1.940535e-02	-4.447014e-03
4.946186155544227e-02	1.361237e-02	-3.317164e-03
4.965717405544227e-02	7.614593e-03	-2.137420e-03
4.985248655544228e-02	1.502221e-03	-9.255278e-04
5.004779905544228e-02	-4.632827e-03	3.002852e-04
5.024311155544228e-02	-1.069828e-02	1.521582e-03
5.043842405544229e-02	-1.660293e-02	2.719992e-03
5.063373655544229e-02	-2.225795e-02	3.877491e-03
5.082904905544229e-02	-2.757828e-02	4.976669e-03
5.102436155544229e-02	-3.248389e-02	6.000994e-03
5.121967405544230e-02	-3.690099e-02	6.935058e-03
5.141498655544230e-02	-4.076311e-02	7.764812e-03
5.161029905544230e-02	-4.401214e-02	8.477776e-03
5.180561155544230e-02	-4.659921e-02	9.063226e-03
5.200092405544231e-02	-4.848537e-02	9.512357e-03
5.219623655544231e-02	-4.964223e-02	9.818414e-03
5.239154905544231e-02	-5.005237e-02	9.976792e-03
5.258686155544232e-02	-4.970960e-02	9.985111e-03
5.278217405544232e-02	-4.861908e-02	9.843243e-03
5.297748655544232e-02	-4.679719e-02	9.553324e-03
5.317279905544232e-02	-4.427134e-02	9.119715e-03
5.336811155544233e-02	-4.107951e-02	8.548936e-03
5.356342405544233e-02	-3.726972e-02	7.849573e-03
5.375873655544233e-02	-3.289928e-02	7.032146e-03
5.395404905544234e-02	-2.803395e-02	6.108948e-03
5.414936155544234e-02	-2.274692e-02	5.093866e-03
5.434467405544234e-02	-1.711773e-02	4.002168e-03
5.453998655544234e-02	-1.123108e-02	2.850274e-03
5.473529905544235e-02	-5.175521e-03	1.655508e-03
5.493061155544235e-02	9.578440e-04	4.358423e-04
5.512592405544235e-02	7.076745e-03	-7.903790e-04
5.532123655544235e-02	1.308914e-02	-2.004712e-03
5.551654905544236e-02	1.890457e-02	-3.188893e-03
5.571186155544236e-02	2.443558e-02	-4.325110e-03
5.590717405544236e-02	2.959896e-02	-5.396272e-03
5.610248655544237e-02	3.431706e-02	-6.386270e-03
5.629779905544237e-02	3.851892e-02	-7.280213e-03
5.649311155544237e-02	4.214136e-02	-8.064654e-03
5.668842405544237e-02	4.512991e-02	-8.727795e-03
5.688373655544238e-02	4.743962e-02	-9.259663e-03
5.707904905544238e-02	4.903579e-02	-9.652256e-03
5.727436155544238e-02	4.989442e-02	-9.899670e-03
5.746967405544239e-02	5.000262e-02	-9.998185e-03
5.766498655544239e-02	4.935878e-02	-9.946316e-03
5.786029905544239e-02	4.797259e-02	-9.744847e-03
5.805561155544239e-02	4.586492e-02	-9.396805e-03
5.825092405544240e-02	4.306749e-02	-8.907428e-03
5.844623655544240e-02	3.962236e-02	-8.284074e-03
5.864154905544240e-02	3.558136e-02	-7.536120e-03
5.883686155544240e-02	3.100526e-02	-6.674815e-03
5.903217405544241e-02	2.596288e-02	-5.713115e-03
5.922748655544241e-02	2.053005e-02	-4.665485e-03
5.942279905544241e-02	1.478847e-02	-3.547681e-03
5.961811155544242e-02	8.824483e-03	-2.376517e-03
5.981342405544242e-02	2.727769e-03	-1.169608e-03
6.010639280544242e-02	-6.467364e-03	6.679879e-04
6.030170530544243e-02	-1.249461e-02	1.884337e-03
6.049701780544243e-02	-1.833387e-02	3.072344e-03
6.069233030544243e-02	-2.389730e-02	4.214140e-03
6.088764280544243e-02	-2.910122e-02	5.292551e-03
6.108295530544244e-02	-3.386735e-02	6.291358e-03
6.127826780544244e-02	-3.812401e-02	7.195537e-03
6.147358030544244e-02	-4.180717e-02	7.991487e-03
6.166889280544244e-02	-4.486144e-02	8.667239e-03
6.186420530544245e-02	-4.724091e-02	9.212627e-03
6.205951780544245e-02	-4.890978e-02	9.619449e-03
6.225483030544245e-02	-4.984299e-02	9.881586e-03
6.245014280544246e-02	-5.002650e-02	9.995094e-03
6.264545530544245e-02	-4.945758e-02	9.958266e-03
6.284076780544244e-02	-4.814481e-02	9.771657e-03
6.303608030544243e-02	-4.610793e-02	9.438073e-03
6.323139280544242e-02	-4.337761e-02	8.962533e-03
6.342670530544241e-02	-3.999491e-02	8.352187e-03
6.362201780544240e-02	-3.601073e-02	7.616215e-03
6.381733030544239e-02	-3.148499e-02	6.765690e-03
6.401264280544237e-02	-2.648576e-02	5.813402e-03
6.420795530544236e-02	-2.108822e-02	4.773675e-03
6.440326780544235e-02	-1.537356e-02	3.662147e-03
6.459858030544234e-02	-9.427709e-03	2.495538e-03
6.479389280544233e-02	-3.340090e-03	1.291393e-03
6.508686155544231e-02	5.857016e-03	-5.454964e-04
6.528217405544230e-02	1.189813e-02	-1.763678e-03
6.547748655544229e-02	1.776026e-02	-2.955332e-03
6.567279905544228e-02	2.335522e-02	-4.102536e-03
6.586811155544227e-02	2.859884e-02	-5.188033e-03
6.606342405544226e-02	3.341225e-02	-6.195498e-03
6.625873655544225e-02	3.772303e-02	-7.109777e-03
6.645404905544224e-02	4.146635e-02	-7.917117e-03
6.664936155544222e-02	4.458591e-02	-8.605378e-03
6.684467405544221e-02	4.703479e-02	-9.164205e-03
6.703998655544220e-02	4.877617e-02	-9.585193e-03
6.723529905544219e-02	4.978386e-02	-9.862012e-03
6.743061155544218e-02	5.004273e-02	-9.990497e-03
6.762592405544217e-02	4.954889e-02	-9.968716e-03
