time	V(n002)	V(n003)
0.000000000000000e+00	0.000000e+00	0.000000e+00
4.187004559540282e-07	-5.445313e-06	2.630773e-07
8.374009119080563e-07	-1.652829e-05	5.261545e-07
1.256101367862084e-06	-3.324892e-05	7.892318e-07
1.674801823816113e-06	-5.560721e-05	1.052309e-06
2.093502279770141e-06	-8.360316e-05	1.315386e-06
2.512202735724169e-06	-1.172368e-04	1.578464e-06
2.930903191678196e-06	-1.565080e-04	1.841541e-06
5.538210840432547e-06	-4.088748e-04	3.479760e-06
8.350549289526076e-06	-5.639100e-04	5.246804e-06
1.135920457605265e-05	-5.347160e-04	7.137198e-06
1.424723354800819e-05	-3.575040e-04	8.951800e-06
1.748499214495609e-05	-1.793553e-04	1.098614e-05
2.068569112612181e-05	-1.929019e-04	1.299720e-05
2.394241657585880e-05	-3.845190e-04	1.504346e-05
2.749942555419657e-05	-5.652849e-04	1.727839e-05
3.175206413067115e-05	-5.303004e-04	1.995040e-05
3.681529051676264e-05	-3.253512e-04	2.313171e-05
4.148177718953552e-05	-3.099803e-04	2.606374e-05
4.616726558607655e-05	-5.000606e-04	2.900771e-05
5.154359369865874e-05	-6.029769e-04	3.238574e-05
5.692545932172191e-05	-4.754469e-04	3.576724e-05
6.338375967829180e-05	-4.143557e-04	3.982508e-05
6.989188664980620e-05	-5.740560e-04	4.391423e-05
7.718190418057756e-05	-6.215064e-04	4.849463e-05
8.495992417536504e-05	-5.163355e-04	5.338164e-05
9.340046984877345e-05	-5.778463e-04	5.868491e-05
1.049568212990867e-04	-6.805326e-04	6.594584e-05
1.161869690941217e-04	-6.451610e-04	7.300178e-05
1.516732759668447e-04	-7.907953e-04	9.529768e-05
1.735148845980765e-04	-8.468219e-04	1.090205e-04
1.983223867980397e-04	-9.494225e-04	1.246064e-04
2.299596208839799e-04	-1.029574e-03	1.444829e-04
2.702302545961480e-04	-1.164278e-03	1.697825e-04
9.714626166672298e-04	-3.371693e-03	6.119890e-04
1.672694978738311e-03	-5.562448e-03	1.050939e-03
2.373927340809393e-03	-7.736543e-03	1.486634e-03
3.075159702880475e-03	-9.893978e-03	1.919072e-03
3.776392064951557e-03	-1.203475e-02	2.348255e-03
4.477624427022638e-03	-1.415887e-02	2.774181e-03
5.178856789093718e-03	-1.626633e-02	3.196851e-03
7.131981789093718e-03	-2.192558e-02	4.332680e-03
9.085106789093718e-03	-2.725506e-02	5.403341e-03
1.103823178909372e-02	-3.217459e-02	6.392730e-03
1.299135678909372e-02	-3.661019e-02	7.285967e-03
1.494448178909372e-02	-4.049513e-02	8.069617e-03
1.689760678909372e-02	-4.377099e-02	8.731891e-03
1.885073178909372e-02	-4.638850e-02	9.262831e-03
2.080385678909372e-02	-4.830828e-02	9.654448e-03
2.275698178909372e-02	-4.950146e-02	9.900854e-03
2.471010678909372e-02	-4.995009e-02	9.998341e-03
2.666323178909372e-02	-4.964742e-02	9.945445e-03
2.861635678909372e-02	-4.859801e-02	9.742958e-03
3.056948178909372e-02	-4.681765e-02	9.393930e-03
3.252260678909372e-02	-4.433310e-02	8.903608e-03
3.447573178909372e-02	-4.118174e-02	8.279366e-03
3.642885678909372e-02	-3.741096e-02	7.530597e-03
3.838198178909372e-02	-3.307749e-02	6.668559e-03
4.033510678909372e-02	-2.824651e-02	5.706221e-03
4.228823178909372e-02	-2.299067e-02	4.658055e-03
4.424135678909372e-02	-1.738904e-02	3.539828e-03
4.619448178909372e-02	-1.152585e-02	2.368359e-03
4.814760678909372e-02	-5.489305e-03	1.161267e-03
5.205385678909372e-02	6.739441e-03	-1.286897e-03
5.400698178909372e-02	1.274771e-02	-2.491147e-03
5.596010678909372e-02	1.856424e-02	-3.657928e-03
5.791323178909372e-02	2.410155e-02	-4.769691e-03
5.986635678909372e-02	2.927635e-02	-5.809713e-03
6.181948178909372e-02	3.401081e-02	-6.762351e-03
6.377260678909372e-02	3.823370e-02	-7.613277e-03
6.572573178909372e-02	4.188153e-02	-8.349692e-03
6.767885678909372e-02	4.489943e-02	-8.960521e-03
6.963198178909372e-02	4.724199e-02	-9.436574e-03
7.158510678909372e-02	4.887399e-02	-9.770693e-03
7.353823178909372e-02	4.977088e-02	-9.957852e-03
7.549135678909372e-02	4.991917e-02	-9.995235e-03
7.744448178909372e-02	4.931663e-02	-9.882281e-03
7.939760678909372e-02	4.797232e-02	-9.620687e-03
8.135073178909372e-02	4.590646e-02	-9.214390e-03
8.330385678909372e-02	4.315013e-02	-8.669499e-03
8.525698178909372e-02	3.974477e-02	-7.994212e-03
8.721010678909372e-02	3.574162e-02	-7.198684e-03
8.916323178909372e-02	3.120089e-02	-6.294881e-03
9.111635678909372e-02	2.619086e-02	-5.296397e-03
9.306948178909372e-02	2.078690e-02	-4.218251e-03
9.502260678909372e-02	1.507028e-02	-3.076658e-03
9.697573178909372e-02	9.126991e-03	-1.888789e-03
9.892885678909372e-02	3.046424e-03	-6.725112e-04
1.018585442890937e-01	-6.131534e-03	1.165106e-03
1.038116692890937e-01	-1.215404e-02	2.372113e-03
1.057647942890937e-01	-1.799374e-02	3.543442e-03
1.077179192890937e-01	-2.356280e-02	4.661475e-03
1.096710442890937e-01	-2.877745e-02	5.709394e-03
1.116241692890937e-01	-3.355926e-02	6.671439e-03
1.135772942890937e-01	-3.783631e-02	7.533139e-03
1.155304192890937e-01	-4.154427e-02	8.281534e-03
1.174835442890937e-01	-4.462736e-02	8.905366e-03
1.194366692890937e-01	-4.703921e-02	9.395254e-03
1.213897942890937e-01	-4.874355e-02	9.743828e-03
1.233429192890937e-01	-4.971474e-02	9.945847e-03
1.252960442890937e-01	-4.993818e-02	9.998270e-03
1.272491692890937e-01	-4.941050e-02	9.900310e-03
1.292022942890937e-01	-4.813964e-02	9.653441e-03
1.311554192890937e-01	-4.614472e-02	9.261373e-03
1.331085442890937e-01	-4.345573e-02	8.730007e-03
1.350616692890937e-01	-4.011313e-02	8.067334e-03
1.370147942890937e-01	-3.616720e-02	7.283320e-03
1.389679192890937e-01	-3.167727e-02	6.389758e-03
1.409210442890937e-01	-2.671089e-02	5.400089e-03
1.428741692890937e-01	-2.134275e-02	4.329196e-03
1.448272942890937e-01	-1.565360e-02	3.193189e-03
1.467804192890937e-01	-9.728997e-03	2.009153e-03
1.487335442890937e-01	-3.658066e-03	7.948981e-04
1.516632317890937e-01	5.522704e-03	-1.043138e-03
1.536163567890937e-01	1.155854e-02	-2.252722e-03
1.555694817890937e-01	1.742053e-02	-3.428423e-03
1.575226067890937e-01	2.302050e-02	-4.552557e-03
1.594757317890937e-01	2.827422e-02	-5.608216e-03
1.614288567890937e-01	3.310267e-02	-6.579523e-03
1.633819817890937e-01	3.743322e-02	-7.451867e-03
1.653351067890937e-01	4.120075e-02	-8.212128e-03
1.672882317890937e-01	4.434857e-02	-8.848871e-03
1.692413567890937e-01	4.682935e-02	-9.352519e-03
1.711944817890937e-01	4.860578e-02	-9.715497e-03
1.731476067890937e-01	4.965112e-02	-9.932344e-03
1.751007317890937e-01	4.994968e-02	-9.999800e-03
1.770538567890937e-01	4.949693e-02	-9.916849e-03
1.790069817890937e-01	4.829971e-02	-9.684740e-03
1.809601067890937e-01	4.637602e-02	-9.306963e-03
1.829132317890937e-01	4.375479e-02	-8.789200e-03
1.848663567890937e-01	4.047545e-02	-8.139241e-03
1.868194817890937e-01	3.658732e-02	-7.366859e-03
1.887726067890937e-01	3.214888e-02	-6.483673e-03
1.907257317890937e-01	2.722689e-02	-5.502966e-03
1.926788567890937e-01	2.189538e-02	-4.439490e-03
1.946319817890937e-01	1.623455e-02	-3.309240e-03
1.965851067890937e-01	1.032954e-02	-2.129215e-03
1.985382317890937e-01	4.269155e-03	-9.171653e-04
2.014679192890937e-01	-4.913040e-03	9.210138e-04
2.034210442890937e-01	-1.096130e-02	2.132991e-03
2.053741692890937e-01	-1.684470e-02	3.312886e-03
2.073272942890937e-01	-2.247474e-02	4.442953e-03
2.092804192890937e-01	-2.776673e-02	5.506193e-03
2.112335442890937e-01	-3.264109e-02	6.486615e-03
2.131866692890937e-01	-3.702449e-02	7.369472e-03
2.151397942890937e-01	-4.085102e-02	8.141486e-03
2.170929192890937e-01	-4.406310e-02	8.791043e-03
2.190460442890937e-01	-4.661244e-02	9.308376e-03
2.209991692890937e-01	-4.846068e-02	9.685702e-03
2.229522942890937e-01	-4.958003e-02	9.917346e-03
2.249054192890937e-01	-4.995364e-02	9.999824e-03
2.268585442890937e-01	-4.957591e-02	9.931895e-03
2.288116692890937e-01	-4.845252e-02	9.714581e-03
2.307647942890937e-01	-4.660034e-02	9.351150e-03
2.327179192890937e-01	-4.404726e-02	8.847070e-03
2.346710442890937e-01	-4.083167e-02	8.209922e-03
2.366241692890937e-01	-3.700193e-02	7.449289e-03
2.385772942890937e-01	-3.261564e-02	6.576611e-03
2.405304192890937e-01	-2.773879e-02	5.605015e-03
2.424835442890937e-01	-2.244472e-02	4.549115e-03
2.444366692890937e-01	-1.681306e-02	3.424792e-03
2.463897942890937e-01	-1.092852e-02	2.248956e-03
2.483429192890937e-01	-4.879599e-03	1.039294e-03
2.512726067890937e-01	4.302634e-03	-7.987506e-04
2.532257317890937e-01	1.036241e-02	-2.012939e-03
2.551788567890937e-01	1.626633e-02	-3.196851e-03
2.571319817890937e-01	2.192558e-02	-4.332680e-03
2.590851067890937e-01	2.725506e-02	-5.403341e-03
2.610382317890937e-01	3.217459e-02	-6.392730e-03
2.629913567890937e-01	3.661019e-02	-7.285967e-03
2.649444817890937e-01	4.049513e-02	-8.069617e-03
2.668976067890937e-01	4.377099e-02	-8.731891e-03
2.688507317890937e-01	4.638850e-02	-9.262831e-03
2.708038567890937e-01	4.830828e-02	-9.654448e-03
2.727569817890937e-01	4.950146e-02	-9.900854e-03
2.747101067890937e-01	4.995009e-02	-9.998341e-03
2.766632317890937e-01	4.964742e-02	-9.945445e-03
2.786163567890937e-01	4.859801e-02	-9.742958e-03
2.805694817890937e-01	4.681765e-02	-9.393930e-03
2.825226067890937e-01	4.433309e-02	-8.903608e-03
2.844757317890937e-01	4.118174e-02	-8.279366e-03
2.864288567890937e-01	3.741096e-02	-7.530597e-03
2.883819817890937e-01	3.307750e-02	-6.668559e-03
2.903351067890937e-01	2.824651e-02	-5.706221e-03
2.922882317890937e-01	2.299068e-02	-4.658055e-03
2.942413567890937e-01	1.738904e-02	-3.539828e-03
2.961944817890937e-01	1.152585e-02	-2.368359e-03
2.981476067890937e-01	5.489306e-03	-1.161267e-03
3.020538567890937e-01	-6.739440e-03	1.286897e-03
3.040069817890937e-01	-1.274771e-02	2.491147e-03
3.059601067890937e-01	-1.856424e-02	3.657928e-03
3.079132317890937e-01	-2.410155e-02	4.769691e-03
3.098663567890937e-01	-2.927635e-02	5.809713e-03
3.118194817890937e-01	-3.401080e-02	6.762351e-03
3.137726067890937e-01	-3.823370e-02	7.613277e-03
3.157257317890937e-01	-4.188153e-02	8.349692e-03
3.176788567890937e-01	-4.489943e-02	8.960521e-03
3.196319817890937e-01	-4.724199e-02	9.436574e-03
3.215851067890937e-01	-4.887399e-02	9.770693e-03
3.235382317890937e-01	-4.977088e-02	9.957852e-03
3.254913567890937e-01	-4.991917e-02	9.995235e-03
3.274444817890937e-01	-4.931663e-02	9.882281e-03
3.293976067890937e-01	-4.797231e-02	9.620687e-03
3.313507317890937e-01	-4.590646e-02	9.214390e-03
3.333038567890937e-01	-4.315013e-02	8.669499e-03
3.352569817890937e-01	-3.974477e-02	7.994212e-03
3.372101067890937e-01	-3.574162e-02	7.198684e-03
3.391632317890937e-01	-3.120089e-02	6.294881e-03
3.411163567890937e-01	-2.619086e-02	5.296397e-03
3.430694817890937e-01	-2.078689e-02	4.218251e-03
3.450226067890937e-01	-1.507028e-02	3.076658e-03
3.469757317890937e-01	-9.126989e-03	1.888789e-03
3.489288567890937e-01	-3.046423e-03	6.725112e-04
3.518585442890937e-01	6.131533e-03	-1.165106e-03
3.538116692890937e-01	1.215404e-02	-2.372113e-03
3.557647942890937e-01	1.799374e-02	-3.543442e-03
3.577179192890937e-01	2.356280e-02	-4.661475e-03
3.596710442890937e-01	2.877745e-02	-5.709394e-03
3.616241692890937e-01	3.355926e-02	-6.671439e-03
3.635772942890937e-01	3.783631e-02	-7.533139e-03
3.655304192890937e-01	4.154427e-02	-8.281534e-03
3.674835442890937e-01	4.462736e-02	-8.905366e-03
3.694366692890937e-01	4.703921e-02	-9.395254e-03
3.713897942890937e-01	4.874355e-02	-9.743828e-03
3.733429192890937e-01	4.971474e-02	-9.945847e-03
3.752960442890937e-01	4.993818e-02	-9.998270e-03
3.772491692890937e-01	4.941050e-02	-9.900310e-03
3.792022942890937e-01	4.813964e-02	-9.653441e-03
3.811554192890937e-01	4.614471e-02	-9.261373e-03
3.831085442890937e-01	4.345573e-02	-8.730007e-03
3.850616692890937e-01	4.011313e-02	-8.067334e-03
3.870147942890937e-01	3.616719e-02	-7.283320e-03
3.889679192890937e-01	3.167727e-02	-6.389758e-03
3.909210442890937e-01	2.671088e-02	-5.400089e-03
3.928741692890937e-01	2.134275e-02	-4.329196e-03
3.948272942890937e-01	1.565359e-02	-3.193189e-03
3.967804192890937e-01	9.728995e-03	-2.009153e-03
3.987335442890937e-01	3.658065e-03	-7.948981e-04
4.016632317890937e-01	-5.522702e-03	1.043138e-03
4.036163567890937e-01	-1.155854e-02	2.252722e-03
4.055694817890937e-01	-1.742053e-02	3.428423e-03
4.075226067890937e-01	-2.302050e-02	4.552557e-03
4.094757317890937e-01	-2.827422e-02	5.608216e-03
4.114288567890937e-01	-3.310267e-02	6.579523e-03
4.133819817890937e-01	-3.743322e-02	7.451867e-03
4.153351067890937e-01	-4.120074e-02	8.212128e-03
4.172882317890937e-01	-4.434857e-02	8.848871e-03
4.192413567890937e-01	-4.682935e-02	9.352519e-03
4.211944817890937e-01	-4.860578e-02	9.715497e-03
4.231476067890937e-01	-4.965112e-02	9.932344e-03
4.251007317890937e-01	-4.994968e-02	9.999800e-03
4.270538567890937e-01	-4.949693e-02	9.916849e-03
4.290069817890937e-01	-4.829971e-02	9.684740e-03
4.309601067890937e-01	-4.637602e-02	9.306963e-03
4.329132317890937e-01	-4.375479e-02	8.789200e-03
4.348663567890937e-01	-4.047545e-02	8.139241e-03
4.368194817890937e-01	-3.658732e-02	7.366859e-03
4.387726067890937e-01	-3.214888e-02	6.483673e-03
4.407257317890937e-01	-2.722689e-02	5.502966e-03
4.426788567890937e-01	-2.189538e-02	4.439490e-03
4.446319817890937e-01	-1.623455e-02	3.309240e-03
4.465851067890937e-01	-1.032954e-02	2.129215e-03
4.485382317890937e-01	-4.269154e-03	9.171653e-04
4.514679192890937e-01	4.913039e-03	-9.210138e-04
4.534210442890937e-01	1.096130e-02	-2.132991e-03
4.553741692890937e-01	1.684470e-02	-3.312886e-03
4.573272942890937e-01	2.247473e-02	-4.442953e-03
4.592804192890937e-01	2.776673e-02	-5.506193e-03
4.612335442890937e-01	3.264109e-02	-6.486615e-03
4.631866692890937e-01	3.702449e-02	-7.369472e-03
4.651397942890937e-01	4.085102e-02	-8.141486e-03
4.670929192890937e-01	4.406310e-02	-8.791043e-03
4.690460442890937e-01	4.661244e-02	-9.308376e-03
4.709991692890937e-01	4.846068e-02	-9.685702e-03
4.729522942890937e-01	4.958003e-02	-9.917346e-03
4.749054192890937e-01	4.995364e-02	-9.999824e-03
4.768585442890937e-01	4.957591e-02	-9.931895e-03
4.788116692890937e-01	4.845251e-02	-9.714581e-03
4.807647942890937e-01	4.660034e-02	-9.351150e-03
4.827179192890937e-01	4.404726e-02	-8.847070e-03
4.846710442890937e-01	4.083167e-02	-8.209922e-03
4.866241692890937e-01	3.700193e-02	-7.449289e-03
4.885772942890937e-01	3.261564e-02	-6.576611e-03
4.905304192890937e-01	2.773879e-02	-5.605015e-03
4.924835442890937e-01	2.244472e-02	-4.549115e-03
4.944366692890937e-01	1.681306e-02	-3.424792e-03
4.963897942890937e-01	1.092852e-02	-2.248956e-03
4.983429192890937e-01	4.879599e-03	-1.039294e-03
5.012726067890937e-01	-4.302633e-03	7.987506e-04
5.032257317890937e-01	-1.036241e-02	2.012939e-03
5.051788567890937e-01	-1.626633e-02	3.196851e-03
5.071319817890937e-01	-2.192558e-02	4.332680e-03
5.090851067890937e-01	-2.725506e-02	5.403341e-03
5.110382317890937e-01	-3.217459e-02	6.392730e-03
5.129913567890937e-01	-3.661019e-02	7.285967e-03
5.149444817890937e-01	-4.049513e-02	8.069617e-03
5.168976067890937e-01	-4.377099e-02	8.731891e-03
5.188507317890937e-01	-4.638850e-02	9.262831e-03
5.208038567890937e-01	-4.830828e-02	9.654448e-03
5.227569817890937e-01	-4.950146e-02	9.900854e-03
5.247101067890937e-01	-4.995009e-02	9.998341e-03
5.266632317890937e-01	-4.964742e-02	9.945445e-03
5.286163567890937e-01	-4.859801e-02	9.742958e-03
5.305694817890937e-01	-4.681765e-02	9.393930e-03
5.325226067890937e-01	-4.433309e-02	8.903608e-03
5.344757317890937e-01	-4.118174e-02	8.279366e-03
5.364288567890937e-01	-3.741096e-02	7.530597e-03
5.383819817890937e-01	-3.307750e-02	6.668559e-03
5.403351067890937e-01	-2.824651e-02	5.706221e-03
5.422882317890937e-01	-2.299068e-02	4.658055e-03
5.442413567890937e-01	-1.738904e-02	3.539828e-03
5.461944817890937e-01	-1.152585e-02	2.368359e-03
5.481476067890937e-01	-5.489306e-03	1.161267e-03
5.520538567890937e-01	6.739439e-03	-1.286897e-03
5.540069817890937e-01	1.274771e-02	-2.491147e-03
5.559601067890937e-01	1.856424e-02	-3.657928e-03
5.579132317890937e-01	2.410155e-02	-4.769691e-03
5.598663567890937e-01	2.927634e-02	-5.809713e-03
5.618194817890937e-01	3.401080e-02	-6.762351e-03
5.637726067890937e-01	3.823370e-02	-7.613277e-03
5.657257317890937e-01	4.188153e-02	-8.349692e-03
5.676788567890937e-01	4.489942e-02	-8.960521e-03
5.696319817890937e-01	4.724199e-02	-9.436574e-03
5.715851067890937e-01	4.887399e-02	-9.770693e-03
5.735382317890937e-01	4.977088e-02	-9.957852e-03
5.754913567890937e-01	4.991917e-02	-9.995235e-03
5.774444817890937e-01	4.931663e-02	-9.882281e-03
5.793976067890937e-01	4.797232e-02	-9.620687e-03
5.813507317890937e-01	4.590646e-02	-9.214390e-03
5.833038567890937e-01	4.315012e-02	-8.669499e-03
5.852569817890937e-01	3.974477e-02	-7.994212e-03
5.872101067890937e-01	3.574162e-02	-7.198684e-03
5.891632317890937e-01	3.120088e-02	-6.294881e-03
5.911163567890937e-01	2.619086e-02	-5.296397e-03
5.930694817890937e-01	2.078689e-02	-4.218251e-03
5.950226067890937e-01	1.507028e-02	-3.076658e-03
5.969757317890937e-01	9.126988e-03	-1.888789e-03
5.989288567890937e-01	3.046422e-03	-6.725112e-04
6.018585442890937e-01	-6.131532e-03	1.165106e-03
6.038116692890937e-01	-1.215404e-02	2.372113e-03
6.057647942890937e-01	-1.799374e-02	3.543442e-03
6.077179192890937e-01	-2.356280e-02	4.661475e-03
6.096710442890937e-01	-2.877745e-02	5.709394e-03
6.116241692890937e-01	-3.355926e-02	6.671439e-03
6.135772942890937e-01	-3.783631e-02	7.533139e-03
6.155304192890937e-01	-4.154427e-02	8.281534e-03
6.174835442890937e-01	-4.462736e-02	8.905366e-03
6.194366692890937e-01	-4.703921e-02	9.395254e-03
6.213897942890937e-01	-4.874355e-02	9.743828e-03
6.233429192890937e-01	-4.971474e-02	9.945847e-03
6.252960442890937e-01	-4.993818e-02	9.998270e-03
6.272491692890937e-01	-4.941050e-02	9.900310e-03
6.292022942890937e-01	-4.813964e-02	9.653441e-03
6.311554192890937e-01	-4.614471e-02	9.261373e-03
6.331085442890937e-01	-4.345573e-02	8.730007e-03
6.350616692890937e-01	-4.011313e-02	8.067334e-03
6.370147942890937e-01	-3.616719e-02	7.283320e-03
6.389679192890937e-01	-3.167726e-02	6.389758e-03
6.409210442890937e-01	-2.671088e-02	5.400089e-03
6.428741692890937e-01	-2.134275e-02	4.329196e-03
6.448272942890937e-01	-1.565359e-02	3.193189e-03
6.467804192890937e-01	-9.728994e-03	2.009153e-03
6.487335442890937e-01	-3.658063e-03	7.948981e-04
6.516632317890937e-01	5.522701e-03	-1.043138e-03
6.536163567890937e-01	1.155854e-02	-2.252722e-03
6.555694817890937e-01	1.742053e-02	-3.428423e-03
6.575226067890937e-01	2.302050e-02	-4.552557e-03
6.594757317890937e-01	2.827422e-02	-5.608216e-03
6.614288567890937e-01	3.310267e-02	-6.579523e-03
6.633819817890937e-01	3.743322e-02	-7.451867e-03
6.653351067890937e-01	4.120074e-02	-8.212128e-03
6.672882317890937e-01	4.434857e-02	-8.848871e-03
6.692413567890937e-01	4.682935e-02	-9.352519e-03
6.711944817890937e-01	4.860577e-02	-9.715497e-03
6.731476067890937e-01	4.965112e-02	-9.932344e-03
6.751007317890937e-01	4.994968e-02	-9.999800e-03
6.770538567890937e-01	4.949693e-02	-9.916849e-03
6.790069817890937e-01	4.829971e-02	-9.684740e-03
6.809601067890937e-01	4.637602e-02	-9.306963e-03
6.829132317890937e-01	4.375479e-02	-8.789200e-03
6.848663567890937e-01	4.047545e-02	-8.139241e-03
6.868194817890937e-01	3.658732e-02	-7.366859e-03
6.887726067890937e-01	3.214888e-02	-6.483673e-03
6.907257317890937e-01	2.722689e-02	-5.502966e-03
6.926788567890937e-01	2.189538e-02	-4.439490e-03
6.946319817890937e-01	1.623455e-02	-3.309240e-03
6.965851067890937e-01	1.032953e-02	-2.129215e-03
6.985382317890937e-01	4.269153e-03	-9.171653e-04
7.014679192890937e-01	-4.913038e-03	9.210138e-04
7.034210442890937e-01	-1.096130e-02	2.132991e-03
7.053741692890937e-01	-1.684470e-02	3.312886e-03
7.073272942890937e-01	-2.247473e-02	4.442953e-03
7.092804192890937e-01	-2.776673e-02	5.506193e-03
7.112335442890937e-01	-3.264109e-02	6.486615e-03
7.131866692890937e-01	-3.702449e-02	7.369472e-03
7.151397942890937e-01	-4.085102e-02	8.141486e-03
7.170929192890937e-01	-4.406310e-02	8.791043e-03
7.190460442890937e-01	-4.661244e-02	9.308376e-03
7.209991692890937e-01	-4.846068e-02	9.685702e-03
7.229522942890937e-01	-4.958002e-02	9.917346e-03
7.249054192890937e-01	-4.995364e-02	9.999824e-03
7.268585442890937e-01	-4.957591e-02	9.931895e-03
7.288116692890937e-01	-4.845251e-02	9.714581e-03
7.307647942890937e-01	-4.660034e-02	9.351150e-03
7.327179192890937e-01	-4.404726e-02	8.847070e-03
7.346710442890937e-01	-4.083167e-02	8.209922e-03
7.366241692890937e-01	-3.700193e-02	7.449289e-03
