Freq.	V(n002)	V(n003)
1.00000000000000e+01	(1.39795194914350e+01dB,-1.79640351621869e+02°)	(0.00000000000000e+00dB,0.00000000000000e+00°)
1.25992104989487e+01	(1.39796203585239e+01dB,-1.79546874943683e+02°)	(0.00000000000000e+00dB,0.00000000000000e+00°)
1.58740105196820e+01	(1.39797804702514e+01dB,-1.79429105214761e+02°)	(0.00000000000000e+00dB,0.00000000000000e+00°)
2.00000000000000e+01	(1.39800346196931e+01dB,-1.79280731664899e+02°)	(0.00000000000000e+00dB,0.00000000000000e+00°)
2.51984209978975e+01	(1.39804380263409e+01dB,-1.79093806725733e+02°)	(0.00000000000000e+00dB,0.00000000000000e+00°)
3.17480210393640e+01	(1.39810783177806e+01dB,-1.78858324093705e+02°)	(0.00000000000000e+00dB,0.00000000000000e+00°)
4.00000000000000e+01	(1.39820945238819e+01dB,-1.78561690618332e+02°)	(0.00000000000000e+00dB,0.00000000000000e+00°)
5.03968419957949e+01	(1.39837071639166e+01dB,-1.78188067902133e+02°)	(0.00000000000000e+00dB,0.00000000000000e+00°)
6.34960420787280e+01	(1.39862658452251e+01dB,-1.77717556687728e+02°)	(0.00000000000000e+00dB,0.00000000000000e+00°)
8.00000000000000e+01	(1.39903244152597e+01dB,-1.77125196965610e+02°)	(0.00000000000000e+00dB,0.00000000000000e+00°)
1.00793683991590e+02	(1.39967592395339e+01dB,-1.76379763232097e+02°)	(0.00000000000000e+00dB,0.00000000000000e+00°)
1.26992084157456e+02	(1.40069544091910e+01dB,-1.75442355473127e+02°)	(0.00000000000000e+00dB,0.00000000000000e+00°)
1.60000000000000e+02	(1.40230893987313e+01dB,-1.74264837806113e+02°)	(0.00000000000000e+00dB,0.00000000000000e+00°)
2.01587367983180e+02	(1.40485800190927e+01dB,-1.72788287121397e+02°)	(0.00000000000000e+00dB,0.00000000000000e+00°)
2.53984168314912e+02	(1.40887400703162e+01dB,-1.70941833319639e+02°)	(0.00000000000000e+00dB,0.00000000000000e+00°)
3.20000000000000e+02	(1.41517396397478e+01dB,-1.68642676215658e+02°)	(0.00000000000000e+00dB,0.00000000000000e+00°)
4.03174735966359e+02	(1.42499115096645e+01dB,-1.65798734452784e+02°)	(0.00000000000000e+00dB,0.00000000000000e+00°)
5.07968336629824e+02	(1.44013454662485e+01dB,-1.62316311193826e+02°)	(0.00000000000000e+00dB,0.00000000000000e+00°)
6.40000000000000e+02	(1.46314224669972e+01dB,-1.58115967263244e+02°)	(0.00000000000000e+00dB,0.00000000000000e+00°)
8.06349471932719e+02	(1.49734041500427e+01dB,-1.53159182704339e+02°)	(0.00000000000000e+00dB,0.00000000000000e+00°)
1.01593667325965e+03	(1.54665575373815e+01dB,-1.47483866542916e+02°)	(0.00000000000000e+00dB,0.00000000000000e+00°)
1.28000000000000e+03	(1.61502805880518e+01dB,-1.41236522851996e+02°)	(0.00000000000000e+00dB,0.00000000000000e+00°)
1.61269894386544e+03	(1.70544804336618e+01dB,-1.34677814910259e+02°)	(0.00000000000000e+00dB,0.00000000000000e+00°)
2.03187334651930e+03	(1.81899999538083e+01dB,-1.28141876192553e+02°)	(0.00000000000000e+00dB,0.00000000000000e+00°)
2.56000000000000e+03	(1.95449323928471e+01dB,-1.21958161410799e+02°)	(0.00000000000000e+00dB,0.00000000000000e+00°)
3.22539788773088e+03	(2.10895449096620e+01dB,-1.16375956586874e+02°)	(0.00000000000000e+00dB,0.00000000000000e+00°)
4.06374669303859e+03	(2.27865512666481e+01dB,-1.11529289938974e+02°)	(0.00000000000000e+00dB,0.00000000000000e+00°)
5.12000000000000e+03	(2.46009949742722e+01dB,-1.07446914830070e+02°)	(0.00000000000000e+00dB,0.00000000000000e+00°)
6.45079577546175e+03	(2.65065062620323e+01dB,-1.04086049045211e+02°)	(0.00000000000000e+00dB,0.00000000000000e+00°)
8.12749338607718e+03	(2.84882363885422e+01dB,-1.01367546715444e+02°)	(0.00000000000000e+00dB,0.00000000000000e+00°)
1.02400000000000e+04	(3.05445010462179e+01dB,-9.92018427094777e+01°)	(0.00000000000000e+00dB,0.00000000000000e+00°)
1.29015915509235e+04	(3.26894347457988e+01dB,-9.75048237064597e+01°)	(0.00000000000000e+00dB,0.00000000000000e+00°)
1.62549867721544e+04	(3.49592874362645e+01dB,-9.62071526755019e+01°)	(0.00000000000000e+00dB,0.00000000000000e+00°)
2.04800000000000e+04	(3.74270864197312e+01dB,-9.52622568553782e+01°)	(0.00000000000000e+00dB,0.00000000000000e+00°)
2.58031831018470e+04	(4.02382350007798e+01dB,-9.46622309395197e+01°)	(0.00000000000000e+00dB,0.00000000000000e+00°)
3.25099735443087e+04	(4.37111839843082e+01dB,-9.44934179787835e+01°)	(0.00000000000000e+00dB,0.00000000000000e+00°)
4.09600000000000e+04	(4.87255272792798e+01dB,-9.52386643831810e+01°)	(0.00000000000000e+00dB,0.00000000000000e+00°)
5.16063662036940e+04	(5.99482137193445e+01dB,-1.02800726368695e+02°)	(0.00000000000000e+00dB,0.00000000000000e+00°)
6.50199470886175e+04	(5.56930392152713e+01dB,9.53316672272025e+01°)	(0.00000000000000e+00dB,0.00000000000000e+00°)
8.19200000000000e+04	(4.72484115835327e+01dB,9.14282556385302e+01°)	(0.00000000000000e+00dB,0.00000000000000e+00°)
1.03212732407388e+05	(4.27596601183635e+01dB,9.06310834200490e+01°)	(0.00000000000000e+00dB,0.00000000000000e+00°)
1.30039894177235e+05	(3.94885711641476e+01dB,9.03369804113811e+01°)	(0.00000000000000e+00dB,0.00000000000000e+00°)
1.63840000000000e+05	(3.67702803898062e+01dB,9.02014355681678e+01°)	(0.00000000000000e+00dB,0.00000000000000e+00°)
2.06425464814776e+05	(3.43433677438834e+01dB,9.01300152334667e+01°)	(0.00000000000000e+00dB,0.00000000000000e+00°)
2.60079788354470e+05	(3.20819312233941e+01dB,9.00882985007980e+01°)	(0.00000000000000e+00dB,0.00000000000000e+00°)
3.27680000000000e+05	(2.99184359899405e+01dB,9.00616459286380e+01°)	(0.00000000000000e+00dB,0.00000000000000e+00°)
4.12850929629552e+05	(2.78143273296826e+01dB,9.00431702155781e+01°)	(0.00000000000000e+00dB,0.00000000000000e+00°)
5.20159576708940e+05	(2.57467552205609e+01dB,9.00293584455246e+01°)	(0.00000000000000e+00dB,0.00000000000000e+00°)
6.55360000000000e+05	(2.37018627961234e+01dB,9.00182692827892e+01°)	(0.00000000000000e+00dB,0.00000000000000e+00°)
8.25701859259104e+05	(2.16711264478133e+01dB,9.00087258872503e+01°)	(0.00000000000000e+00dB,0.00000000000000e+00°)
1.04031915341788e+06	(1.96492563997217e+01dB,8.99999309642644e+01°)	(0.00000000000000e+00dB,0.00000000000000e+00°)
1.31072000000000e+06	(1.76329515042918e+01dB,8.99912718504014e+01°)	(0.00000000000000e+00dB,0.00000000000000e+00°)
1.65140371851821e+06	(1.56201444455940e+01dB,8.99822142316161e+01°)	(0.00000000000000e+00dB,0.00000000000000e+00°)
2.00000000000000e+06	(1.39533933162526e+01dB,8.99740327349886e+01°)	(0.00000000000000e+00dB,0.00000000000000e+00°)
